
T05F4 000:351 SEGGER J-Link V4.35b (beta) Log File (0000ms, 0345ms total)
T05F4 000:351 DLL Compiled: Sep  2 2011 18:34:46 (0000ms, 0345ms total)
T05F4 000:351 Logging started @ 2013-01-24 13:35 (0000ms, 0345ms total)
T05F4 000:351 JLINK_SetWarnOutHandler(...) (0000ms, 0345ms total)
T05F4 000:351 JLINK_OpenEx(...)
Firmware: J-Link ARM V8 compiled Sep  2 2011 17:54:36
Hardware: V8.00
S/N: 805306163
Feature(s): RDI,FlashDL,FlashBP,JFlash,GDBFull  returns O.K. (0092ms, 0345ms total)
T05F4 000:444 JLINK_SetErrorOutHandler(...) (0000ms, 0437ms total)
T05F4 000:445 JLINK_ExecCommand("Device = STM32F103VE", ...)
                JLINK_ExecCommand("map ram 0x20000000 - 0x2000FFFF", ...)  returns 0x00 (0000ms, 0000ms total)
                JLINK_AddMirrorAreaEx(Addr = 0x00000000, Size = 0x00000000) (0000ms, 0000ms total)
              Device "STM32F103VE" selected (512 KB flash, 64 KB RAM).  returns 0x00 (0004ms, 0437ms total)
T05F4 000:452 JLINK_ExecCommand("ProjectFile = "E:\WifiLED\Project\JLinkSettings.ini"", ...)  returns 0x00 (0001ms, 0441ms total)
T05F4 000:456 JLINK_ExecCommand("DisableConnectionTimeout", ...)  returns 0x00 (0000ms, 0442ms total)
T05F4 000:456 JLINK_TIF_Select(JLINKARM_TIF_JTAG)  returns 0x00 (0000ms, 0442ms total)
T05F4 000:456 JLINK_SetSpeed(50) (0000ms, 0442ms total)
T05F4 000:456 JLINK_GetHardwareVersion()  returns 0x13880 (0000ms, 0442ms total)
T05F4 000:456 JLINK_GetDLLVersion()  returns 43502 (0000ms, 0442ms total)
T05F4 000:457 JLINK_GetFirmwareString(...) (0000ms, 0442ms total)
T05F4 000:462 JLINK_GetDLLVersion()  returns 43502 (0000ms, 0442ms total)
T05F4 000:462 JLINK_GetCompileDateTime() (0000ms, 0442ms total)
T05F4 000:464 JLINK_GetFirmwareString(...) (0000ms, 0442ms total)
T05F4 000:465 JLINK_GetHardwareVersion()  returns 0x13880 (0000ms, 0442ms total)
T05F4 000:470 JLINK_GetIdData(...) >0x2F8 JTAG>TotalIRLen = 9, IRPrint = 0x0011 >0x30 JTAG> >0x210 JTAG> >0x80 JTAG> >0x40 JTAG> >0x40 JTAG> >0x50 JTAG> >0x40 JTAG> >0x40 JTAG> >0x40 JTAG> >0x50 JTAG> >0x40 JTAG> >0x50 JTAG> >0x40 JTAG> >0x40 JTAG> >0x40 JTAG> >0x30 JTAG> >0x40 JTAG> >0x50 JTAG> >0x40 JTAG> >0x38 JTAG> >0x80 JTAG> >0x40 JTAG> >0x40 JTAG> >0x50 JTAG> >0x40 JTAG> >0x40 JTAG> >0x40 JTAG> >0x50 JTAG> >0x40 JTAG> >0x40 JTAG> >0x30 JTAG> >0x40 JTAG> >0x40 JTAG> >0x40 JTAG> >0x40 JTAG>
 >0x40 JTAG> >0x50 JTAG> >0x40 JTAG> >0x80 JTAG> >0x40 JTAG> >0x30 JTAG> >0x40 JTAG> >0x40 JTAG> >0x40 JTAG> >0x40 JTAG> >0x40 JTAG> >0x50 JTAG> >0x40 JTAG> >0x80 JTAG> >0x40 JTAG> >0x30 JTAG> >0x40 JTAG> >0x50 JTAG> >0x40 JTAG> >0x40 JTAG> >0x40 JTAG> >0x30 JTAG> >0x40 JTAG> >0x50 JTAG> >0x40 JTAG>Found Cortex-M3 r1p1, Little endian. >0x50 JTAG> >0x50 JTAG> >0x40 JTAG> >0x40 JTAG> >0x30 JTAG> >0x30 JTAG> >0x50 JTAG> >0x40 JTAG> >0x80 JTAG> >0x40 JTAG> >0x30 JTAG> >0x40 JTAG> >0x50 JTAG> >0x40 JTAG>
 >0x40 JTAG> >0x40 JTAG> >0x30 JTAG> >0x30 JTAG> >0x50 JTAG> >0x40 JTAG> >0x80 JTAG> >0x40 JTAG> >0x30 JTAG> >0x40 JTAG> >0x50 JTAG> >0x40 JTAG>TPIU fitted. >0x40 JTAG> >0x40 JTAG> >0x30 JTAG> >0x40 JTAG> >0x50 JTAG> >0x40 JTAG>ETM fitted. >0x40 JTAG> >0x40 JTAG> >0x30 JTAG> >0x40 JTAG> >0x50 JTAG> >0x40 JTAG> >0x40 JTAG> >0x40 JTAG> >0x30 JTAG> >0x40 JTAG> >0x50 JTAG> >0x40 JTAG>  FPUnit: 6 code (BP) slots and 2 literal slots >0x40 JTAG> >0x40 JTAG> >0x30 JTAG> >0x40 JTAG> >0x50 JTAG> >0x40 JTAG>
 ScanLen=9 NumDevices=2 aId[0]=0x3BA00477 aIrRead[0]=0 aScanLen[0]=0 aScanRead[0]=0 (0272ms, 0442ms total)
T05F4 000:742 JLINK_JTAG_GetDeviceID(DeviceIndex = 0)  returns 0x3BA00477 (0000ms, 0714ms total)
T05F4 000:742 JLINK_JTAG_GetDeviceInfo(DeviceIndex = 0)  returns 0x00 (0000ms, 0714ms total)
T05F4 000:742 JLINK_JTAG_GetDeviceID(DeviceIndex = 1)  returns 0x6414041 (0000ms, 0714ms total)
T05F4 000:742 JLINK_JTAG_GetDeviceInfo(DeviceIndex = 1)  returns 0x00 (0000ms, 0714ms total)
T05F4 000:742 JLINK_GetDebugInfo(0x100) -- Value=0xE00FF003  returns 0x00 (0000ms, 0714ms total)
T05F4 000:744 JLINK_ReadMem (0xE00FFFF0, 0x0010 Bytes, ...) -- CPU is running -- CPU_ReadMem(16 bytes @ 0xE00FFFF0) -- Data:  0D 00 00 00 10 00 00 00 05 00 00 00 B1 00 00 00  returns 0x00 (0017ms, 0714ms total)
T05F4 000:761 JLINK_ReadMem (0xE00FFFD0, 0x0020 Bytes, ...) -- CPU is running -- CPU_ReadMem(32 bytes @ 0xE00FFFD0) -- Data:  00 00 00 00 00 00 00 00 00 00 00 00 00 00 00 00 ...  returns 0x00 (0017ms, 0731ms total)
T05F4 000:778 JLINK_ReadMem (0xE00FF000, 0x0018 Bytes, ...) -- CPU is running -- CPU_ReadMem(24 bytes @ 0xE00FF000) -- Data:  03 F0 F0 FF 03 20 F0 FF 03 30 F0 FF 03 10 F0 FF ...  returns 0x00 (0015ms, 0748ms total)
T05F4 000:793 JLINK_ReadMemU32(0xE000ED00, 0x0001 Items, ...) -- CPU is running -- CPU_ReadMem(4 bytes @ 0xE000ED00) -- Data:  31 C2 1F 41  returns 0x01 (0010ms, 0763ms total)
T05F4 000:803 JLINK_SetResetType(JLINKARM_RESET_TYPE_NORMAL)  returns JLINKARM_RESET_TYPE_NORMAL (0000ms, 0773ms total)
T05F4 000:803 JLINK_Reset() >0x308 JTAG>TotalIRLen = 9, IRPrint = 0x0011 >0x30 JTAG> >0x210 JTAG> >0x80 JTAG> >0x40 JTAG> >0x40 JTAG> >0x50 JTAG> >0x40 JTAG> >0x40 JTAG> >0x40 JTAG> >0x50 JTAG> >0x40 JTAG> >0x50 JTAG> >0x40 JTAG> >0x40 JTAG> >0x40 JTAG> >0x30 JTAG> >0x40 JTAG> >0x50 JTAG> >0x40 JTAG> >0x38 JTAG> >0x80 JTAG> >0x40 JTAG> >0x40 JTAG> >0x50 JTAG> >0x40 JTAG> >0x40 JTAG> >0x40 JTAG> >0x50 JTAG> >0x40 JTAG> >0x40 JTAG> >0x30 JTAG> >0x40 JTAG> >0x40 JTAG> >0x40 JTAG> >0x40 JTAG> >0x40 JTAG>
 >0x50 JTAG> >0x40 JTAG> >0x80 JTAG> >0x40 JTAG> >0x30 JTAG> >0x40 JTAG> >0x40 JTAG> >0x40 JTAG> >0x40 JTAG> >0x40 JTAG> >0x50 JTAG> >0x40 JTAG> >0x80 JTAG> >0x40 JTAG> >0x30 JTAG> >0x40 JTAG> >0x50 JTAG> >0x40 JTAG> >0x40 JTAG> >0x40 JTAG> >0x30 JTAG> >0x40 JTAG> >0x50 JTAG> >0x40 JTAG>Found Cortex-M3 r1p1, Little endian. >0x50 JTAG> >0x50 JTAG> >0x40 JTAG> >0x40 JTAG> >0x30 JTAG> >0x30 JTAG> >0x50 JTAG> >0x40 JTAG> >0x80 JTAG> >0x40 JTAG> >0x30 JTAG> >0x40 JTAG> >0x50 JTAG> >0x40 JTAG> >0x40 JTAG>
 >0x40 JTAG> >0x30 JTAG> >0x40 JTAG> >0x50 JTAG> >0x40 JTAG>TPIU fitted. >0x40 JTAG> >0x40 JTAG> >0x30 JTAG> >0x40 JTAG> >0x50 JTAG> >0x40 JTAG>ETM fitted. >0x40 JTAG> >0x40 JTAG> >0x30 JTAG> >0x40 JTAG> >0x50 JTAG> >0x40 JTAG> >0x40 JTAG> >0x40 JTAG> >0x30 JTAG> >0x40 JTAG> >0x50 JTAG> >0x40 JTAG>  FPUnit: 6 code (BP) slots and 2 literal slots >0x40 JTAG> >0x40 JTAG> >0x30 JTAG> >0x40 JTAG> >0x50 JTAG> >0x40 JTAG> -- CPU is running -- CPU_WriteMem(4 bytes @ 0xE000EDF0) -- CPU is running
 -- CPU_WriteMem(4 bytes @ 0xE000EDFC) -- CPU is running -- CPU_WriteMem(4 bytes @ 0xE000ED0C) -- CPU is running -- CPU_ReadMem(4 bytes @ 0xE000EDF0) -- CPU is running -- CPU_ReadMem(4 bytes @ 0xE000EDF0) -- CPU is running -- CPU_WriteMem(4 bytes @ 0xE000EDF0) -- CPU is running -- CPU_WriteMem(4 bytes @ 0xE000EDFC) -- CPU is running -- CPU_ReadMem(4 bytes @ 0xE000EDF0) >0x90 JTAG> >0x40 JTAG> >0x30 JTAG> >0x40 JTAG> >0x50 JTAG> >0x40 JTAG> -- CPU_WriteMem(4 bytes @ 0xE000EDFC)
 -- CPU_WriteMem(4 bytes @ 0xE0001028) -- CPU_WriteMem(4 bytes @ 0xE0001038) -- CPU_WriteMem(4 bytes @ 0xE0001048) -- CPU_WriteMem(4 bytes @ 0xE0001058) (0496ms, 0773ms total)
T05F4 001:300 JLINK_Halt()  returns 0x00 (0001ms, 1269ms total)
T05F4 001:301 JLINK_IsHalted()  returns TRUE (0000ms, 1270ms total)
T05F4 001:301 JLINK_ReadMemU32(0xE000EDF0, 0x0001 Items, ...) -- CPU_ReadMem(4 bytes @ 0xE000EDF0) -- Data:  03 00 03 00  returns 0x01 (0009ms, 1270ms total)
T05F4 001:310 JLINK_WriteU32(0xE000EDF0, 0xA05F0003) -- CPU_WriteMem(4 bytes @ 0xE000EDF0)  returns 0x00 (0007ms, 1279ms total)
T05F4 001:317 JLINK_WriteU32(0xE000EDFC, 0x01000000) -- CPU_WriteMem(4 bytes @ 0xE000EDFC)  returns 0x00 (0007ms, 1286ms total)
T05F4 001:324 JLINK_ReadMemU32(0xE0002000, 0x0001 Items, ...) -- CPU_ReadMem(4 bytes @ 0xE0002000) -- Data:  60 02 00 00  returns 0x01 (0010ms, 1293ms total)
T05F4 001:334 JLINK_ReadMemU32(0xE0001000, 0x0001 Items, ...) -- CPU_ReadMem(4 bytes @ 0xE0001000) -- Data:  00 00 00 40  returns 0x01 (0010ms, 1303ms total)
T05F4 001:344 JLINK_WriteU32(0xE0001028, 0x00000000) -- CPU_WriteMem(4 bytes @ 0xE0001028)  returns 0x00 (0007ms, 1313ms total)
T05F4 001:351 JLINK_WriteU32(0xE0001038, 0x00000000) -- CPU_WriteMem(4 bytes @ 0xE0001038)  returns 0x00 (0007ms, 1320ms total)
T05F4 001:358 JLINK_WriteU32(0xE0001048, 0x00000000) -- CPU_WriteMem(4 bytes @ 0xE0001048)  returns 0x00 (0007ms, 1327ms total)
T05F4 001:365 JLINK_WriteU32(0xE0001058, 0x00000000) -- CPU_WriteMem(4 bytes @ 0xE0001058)  returns 0x00 (0007ms, 1334ms total)
T05F4 001:378 JLINK_GetHWStatus(...)  returns 0x00 (0000ms, 1341ms total)
T05F4 001:383 JLINK_GetNumBPUnits(Type = 0xFFFFFF00)  returns 0x06 (0000ms, 1341ms total)
T05F4 001:383 JLINK_GetNumBPUnits(Type = 0xF0)  returns 0x2000 (0000ms, 1341ms total)
T05F4 001:383 JLINK_GetNumWPUnits()  returns 0x04 (0000ms, 1341ms total)
T05F4 001:386 JLINK_GetSpeed()  returns 0x32 (0000ms, 1341ms total)
T05F4 001:389 JLINK_ReadMemU32(0xE000E004, 0x0001 Items, ...) -- CPU_ReadMem(4 bytes @ 0xE000E004) -- Data:  01 00 00 00  returns 0x01 (0010ms, 1341ms total)
T05F4 001:399 JLINK_ReadMemU32(0xE000E004, 0x0001 Items, ...) -- CPU_ReadMem(4 bytes @ 0xE000E004) -- Data:  01 00 00 00  returns 0x01 (0010ms, 1351ms total)
T05F4 001:409 JLINK_WriteMem(0xE0001000, 0x001C Bytes, ...) -- Data:  01 00 00 00 00 00 00 00 00 00 00 00 00 00 00 00 ... -- CPU_WriteMem(28 bytes @ 0xE0001000)  returns 0x1C (0014ms, 1361ms total)
T05F4 001:423 JLINK_ReadMem (0xE0001000, 0x001C Bytes, ...) -- CPU_ReadMem(28 bytes @ 0xE0001000) -- Data:  01 00 00 40 00 00 00 00 00 00 00 00 00 00 00 00 ...  returns 0x00 (0015ms, 1375ms total)
T05F4 001:438 JLINK_Halt()  returns 0x00 (0000ms, 1390ms total)
T05F4 001:438 JLINK_IsHalted()  returns TRUE (0000ms, 1390ms total)
T05F4 001:442 JLINK_WriteMem(0x20000000, 0x0164 Bytes, ...) -- Data:  00 BE 0A E0 0D 78 2D 06 68 40 08 24 40 00 00 D3 ... -- CPU_WriteMem(356 bytes @ 0x20000000)  returns 0x164 (0096ms, 1390ms total)
T05F4 001:538 JLINK_WriteReg(R0, 0x08000000)  returns 0x00 (0000ms, 1486ms total)
T05F4 001:538 JLINK_WriteReg(R1, 0x007A1200)  returns 0x00 (0001ms, 1486ms total)
T05F4 001:539 JLINK_WriteReg(R2, 0x00000001)  returns 0x00 (0000ms, 1487ms total)
T05F4 001:539 JLINK_WriteReg(R3, 0x00000000)  returns 0x00 (0000ms, 1487ms total)
T05F4 001:539 JLINK_WriteReg(R4, 0x00000000)  returns 0x00 (0000ms, 1487ms total)
T05F4 001:539 JLINK_WriteReg(R5, 0x00000000)  returns 0x00 (0000ms, 1487ms total)
T05F4 001:539 JLINK_WriteReg(R6, 0x00000000)  returns 0x00 (0000ms, 1487ms total)
T05F4 001:539 JLINK_WriteReg(R7, 0x00000000)  returns 0x00 (0000ms, 1487ms total)
T05F4 001:539 JLINK_WriteReg(R8, 0x00000000)  returns 0x00 (0000ms, 1487ms total)
T05F4 001:539 JLINK_WriteReg(R9, 0x20000160)  returns 0x00 (0000ms, 1487ms total)
T05F4 001:539 JLINK_WriteReg(R10, 0x00000000)  returns 0x00 (0000ms, 1487ms total)
T05F4 001:539 JLINK_WriteReg(R11, 0x00000000)  returns 0x00 (0000ms, 1487ms total)
T05F4 001:539 JLINK_WriteReg(R12, 0x00000000)  returns 0x00 (0000ms, 1487ms total)
T05F4 001:539 JLINK_WriteReg(R13, 0x20000800)  returns 0x00 (0000ms, 1487ms total)
T05F4 001:539 JLINK_WriteReg(R14, 0x20000001)  returns 0x00 (0000ms, 1487ms total)
T05F4 001:539 JLINK_WriteReg(R15, 0x20000038)  returns 0x00 (0000ms, 1487ms total)
T05F4 001:539 JLINK_WriteReg(XPSR, 0x01000000)  returns 0x00 (0000ms, 1487ms total)
T05F4 001:539 JLINK_WriteReg(MSP, 0x20000800)  returns 0x00 (0000ms, 1487ms total)
T05F4 001:539 JLINK_WriteReg(PSP, 0x20000800)  returns 0x00 (0000ms, 1487ms total)
T05F4 001:539 JLINK_WriteReg(BASEPRI, 0x00000000)  returns 0x00 (0000ms, 1487ms total)
T05F4 001:539 JLINK_WriteReg(CONTROL, 0x00000000)  returns 0x00 (0000ms, 1487ms total)
T05F4 001:539 JLINK_WriteReg(FAULTMASK, 0x00000000)  returns 0x00 (0000ms, 1487ms total)
T05F4 001:539 JLINK_WriteReg(BASEPRI_MAX, 0x00000000)  returns 0x00 (0000ms, 1487ms total)
T05F4 001:539 JLINK_SetBPEx(Addr = 0x20000000, Type = 0xFFFFFFF2) -- CPU_ReadMem(2 bytes @ 0x20000000)  returns 0x00000001 (0011ms, 1487ms total)
T05F4 001:550 JLINK_Go() -- CPU_WriteMem(2 bytes @ 0x20000000) -- CPU_WriteMem(4 bytes @ 0xE0002008) -- CPU_WriteMem(4 bytes @ 0xE000200C) -- CPU_WriteMem(4 bytes @ 0xE0002010) -- CPU_WriteMem(4 bytes @ 0xE0002014) -- CPU_WriteMem(4 bytes @ 0xE0002018) -- CPU_WriteMem(4 bytes @ 0xE000201C) (0094ms, 1498ms total)
T05F4 001:644 JLINK_IsHalted() -- CPU_ReadMem(2 bytes @ 0x20000000)  returns TRUE (0125ms, 1592ms total)
T05F4 001:769 JLINK_ReadReg(R15)  returns 0x20000000 (0000ms, 1592ms total)
T05F4 001:769 JLINK_ClrBPEx(BPHandle = 0x00000001)  returns 0x00 (0000ms, 1592ms total)
T05F4 001:769 JLINK_ReadReg(R0)  returns 0x00000000 (0000ms, 1592ms total)
T05F4 001:770 JLINK_WriteReg(R0, 0x08000000)  returns 0x00 (0000ms, 1592ms total)
T05F4 001:770 JLINK_WriteReg(R1, 0x007A1200)  returns 0x00 (0000ms, 1592ms total)
T05F4 001:770 JLINK_WriteReg(R2, 0x00000001)  returns 0x00 (0000ms, 1592ms total)
T05F4 001:770 JLINK_WriteReg(R3, 0x00000000)  returns 0x00 (0000ms, 1592ms total)
T05F4 001:770 JLINK_WriteReg(R4, 0x00000000)  returns 0x00 (0000ms, 1592ms total)
T05F4 001:770 JLINK_WriteReg(R5, 0x00000000)  returns 0x00 (0000ms, 1592ms total)
T05F4 001:770 JLINK_WriteReg(R6, 0x00000000)  returns 0x00 (0000ms, 1592ms total)
T05F4 001:770 JLINK_WriteReg(R7, 0x00000000)  returns 0x00 (0000ms, 1592ms total)
T05F4 001:770 JLINK_WriteReg(R8, 0x00000000)  returns 0x00 (0000ms, 1592ms total)
T05F4 001:770 JLINK_WriteReg(R9, 0x20000160)  returns 0x00 (0000ms, 1592ms total)
T05F4 001:770 JLINK_WriteReg(R10, 0x00000000)  returns 0x00 (0000ms, 1592ms total)
T05F4 001:770 JLINK_WriteReg(R11, 0x00000000)  returns 0x00 (0000ms, 1592ms total)
T05F4 001:770 JLINK_WriteReg(R12, 0x00000000)  returns 0x00 (0000ms, 1592ms total)
T05F4 001:770 JLINK_WriteReg(R13, 0x20000800)  returns 0x00 (0000ms, 1592ms total)
T05F4 001:770 JLINK_WriteReg(R14, 0x20000001)  returns 0x00 (0001ms, 1592ms total)
T05F4 001:771 JLINK_WriteReg(R15, 0x2000007C)  returns 0x00 (0000ms, 1593ms total)
T05F4 001:771 JLINK_WriteReg(XPSR, 0x01000000)  returns 0x00 (0000ms, 1593ms total)
T05F4 001:771 JLINK_WriteReg(MSP, 0x20000800)  returns 0x00 (0000ms, 1593ms total)
T05F4 001:771 JLINK_WriteReg(PSP, 0x20000800)  returns 0x00 (0000ms, 1593ms total)
T05F4 001:771 JLINK_WriteReg(BASEPRI, 0x00000000)  returns 0x00 (0000ms, 1593ms total)
T05F4 001:771 JLINK_WriteReg(CONTROL, 0x00000000)  returns 0x00 (0000ms, 1593ms total)
T05F4 001:771 JLINK_WriteReg(FAULTMASK, 0x00000000)  returns 0x00 (0000ms, 1593ms total)
T05F4 001:771 JLINK_WriteReg(BASEPRI_MAX, 0x00000000)  returns 0x00 (0000ms, 1593ms total)
T05F4 001:771 JLINK_SetBPEx(Addr = 0x20000000, Type = 0xFFFFFFF2)  returns 0x00000002 (0000ms, 1593ms total)
T05F4 001:771 JLINK_Go() -- CPU_WriteMem(4 bytes @ 0xE0002008) -- CPU_WriteMem(4 bytes @ 0xE000200C) -- CPU_WriteMem(4 bytes @ 0xE0002010) -- CPU_WriteMem(4 bytes @ 0xE0002014) -- CPU_WriteMem(4 bytes @ 0xE0002018) -- CPU_WriteMem(4 bytes @ 0xE000201C) (0066ms, 1593ms total)
T05F4 001:838 JLINK_IsHalted()  returns FALSE (0007ms, 1659ms total)
T05F4 001:896 JLINK_IsHalted() -- CPU_ReadMem(2 bytes @ 0x20000000)  returns TRUE (0124ms, 1659ms total)
T05F4 002:020 JLINK_ReadReg(R15)  returns 0x20000000 (0000ms, 1659ms total)
T05F4 002:020 JLINK_ClrBPEx(BPHandle = 0x00000002)  returns 0x00 (0000ms, 1659ms total)
T05F4 002:020 JLINK_ReadReg(R0)  returns 0x00000000 (0000ms, 1659ms total)
T05F4 002:072 JLINK_WriteReg(R0, 0x00000001)  returns 0x00 (0000ms, 1659ms total)
T05F4 002:072 JLINK_WriteReg(R1, 0x007A1200)  returns 0x00 (0000ms, 1659ms total)
T05F4 002:073 JLINK_WriteReg(R2, 0x00000001)  returns 0x00 (0000ms, 1660ms total)
T05F4 002:073 JLINK_WriteReg(R3, 0x00000000)  returns 0x00 (0000ms, 1660ms total)
T05F4 002:073 JLINK_WriteReg(R4, 0x00000000)  returns 0x00 (0000ms, 1660ms total)
T05F4 002:073 JLINK_WriteReg(R5, 0x00000000)  returns 0x00 (0000ms, 1660ms total)
T05F4 002:073 JLINK_WriteReg(R6, 0x00000000)  returns 0x00 (0000ms, 1660ms total)
T05F4 002:073 JLINK_WriteReg(R7, 0x00000000)  returns 0x00 (0000ms, 1660ms total)
T05F4 002:073 JLINK_WriteReg(R8, 0x00000000)  returns 0x00 (0000ms, 1660ms total)
T05F4 002:073 JLINK_WriteReg(R9, 0x20000160)  returns 0x00 (0000ms, 1660ms total)
T05F4 002:073 JLINK_WriteReg(R10, 0x00000000)  returns 0x00 (0000ms, 1660ms total)
T05F4 002:073 JLINK_WriteReg(R11, 0x00000000)  returns 0x00 (0000ms, 1660ms total)
T05F4 002:073 JLINK_WriteReg(R12, 0x00000000)  returns 0x00 (0000ms, 1660ms total)
T05F4 002:073 JLINK_WriteReg(R13, 0x20000800)  returns 0x00 (0000ms, 1660ms total)
T05F4 002:073 JLINK_WriteReg(R14, 0x20000001)  returns 0x00 (0000ms, 1660ms total)
T05F4 002:073 JLINK_WriteReg(R15, 0x2000006A)  returns 0x00 (0000ms, 1660ms total)
T05F4 002:073 JLINK_WriteReg(XPSR, 0x01000000)  returns 0x00 (0000ms, 1660ms total)
T05F4 002:073 JLINK_WriteReg(MSP, 0x20000800)  returns 0x00 (0000ms, 1660ms total)
T05F4 002:073 JLINK_WriteReg(PSP, 0x20000800)  returns 0x00 (0000ms, 1660ms total)
T05F4 002:073 JLINK_WriteReg(BASEPRI, 0x00000000)  returns 0x00 (0000ms, 1660ms total)
T05F4 002:073 JLINK_WriteReg(CONTROL, 0x00000000)  returns 0x00 (0000ms, 1660ms total)
T05F4 002:073 JLINK_WriteReg(FAULTMASK, 0x00000000)  returns 0x00 (0000ms, 1660ms total)
T05F4 002:073 JLINK_WriteReg(BASEPRI_MAX, 0x00000000)  returns 0x00 (0000ms, 1660ms total)
T05F4 002:073 JLINK_SetBPEx(Addr = 0x20000000, Type = 0xFFFFFFF2)  returns 0x00000003 (0000ms, 1660ms total)
T05F4 002:073 JLINK_Go() -- CPU_WriteMem(4 bytes @ 0xE0002008) -- CPU_WriteMem(4 bytes @ 0xE000200C) -- CPU_WriteMem(4 bytes @ 0xE0002010) -- CPU_WriteMem(4 bytes @ 0xE0002014) -- CPU_WriteMem(4 bytes @ 0xE0002018) -- CPU_WriteMem(4 bytes @ 0xE000201C) (0066ms, 1660ms total)
T05F4 002:139 JLINK_IsHalted() -- CPU_ReadMem(2 bytes @ 0x20000000)  returns TRUE (0125ms, 1726ms total)
T05F4 002:264 JLINK_ReadReg(R15)  returns 0x20000000 (0000ms, 1726ms total)
T05F4 002:264 JLINK_ClrBPEx(BPHandle = 0x00000003)  returns 0x00 (0000ms, 1726ms total)
T05F4 002:264 JLINK_ReadReg(R0)  returns 0x00000000 (0000ms, 1726ms total)
T05F4 002:269 JLINK_WriteMem(0x20000000, 0x0164 Bytes, ...) -- Data:  00 BE 0A E0 0D 78 2D 06 68 40 08 24 40 00 00 D3 ... -- CPU_WriteMem(356 bytes @ 0x20000000)  returns 0x164 (0096ms, 1726ms total)
T05F4 002:365 JLINK_WriteReg(R0, 0x08000000)  returns 0x00 (0001ms, 1822ms total)
T05F4 002:366 JLINK_WriteReg(R1, 0x007A1200)  returns 0x00 (0000ms, 1823ms total)
T05F4 002:366 JLINK_WriteReg(R2, 0x00000002)  returns 0x00 (0000ms, 1823ms total)
T05F4 002:366 JLINK_WriteReg(R3, 0x00000000)  returns 0x00 (0000ms, 1823ms total)
T05F4 002:366 JLINK_WriteReg(R4, 0x00000000)  returns 0x00 (0000ms, 1823ms total)
T05F4 002:366 JLINK_WriteReg(R5, 0x00000000)  returns 0x00 (0000ms, 1823ms total)
T05F4 002:366 JLINK_WriteReg(R6, 0x00000000)  returns 0x00 (0000ms, 1823ms total)
T05F4 002:366 JLINK_WriteReg(R7, 0x00000000)  returns 0x00 (0000ms, 1823ms total)
T05F4 002:366 JLINK_WriteReg(R8, 0x00000000)  returns 0x00 (0001ms, 1823ms total)
T05F4 002:367 JLINK_WriteReg(R9, 0x20000160)  returns 0x00 (0000ms, 1824ms total)
T05F4 002:367 JLINK_WriteReg(R10, 0x00000000)  returns 0x00 (0000ms, 1824ms total)
T05F4 002:367 JLINK_WriteReg(R11, 0x00000000)  returns 0x00 (0000ms, 1824ms total)
T05F4 002:367 JLINK_WriteReg(R12, 0x00000000)  returns 0x00 (0000ms, 1824ms total)
T05F4 002:367 JLINK_WriteReg(R13, 0x20000800)  returns 0x00 (0000ms, 1824ms total)
T05F4 002:367 JLINK_WriteReg(R14, 0x20000001)  returns 0x00 (0000ms, 1824ms total)
T05F4 002:367 JLINK_WriteReg(R15, 0x20000038)  returns 0x00 (0000ms, 1824ms total)
T05F4 002:367 JLINK_WriteReg(XPSR, 0x01000000)  returns 0x00 (0000ms, 1824ms total)
T05F4 002:367 JLINK_WriteReg(MSP, 0x20000800)  returns 0x00 (0000ms, 1824ms total)
T05F4 002:367 JLINK_WriteReg(PSP, 0x20000800)  returns 0x00 (0000ms, 1824ms total)
T05F4 002:367 JLINK_WriteReg(BASEPRI, 0x00000000)  returns 0x00 (0000ms, 1824ms total)
T05F4 002:367 JLINK_WriteReg(CONTROL, 0x00000000)  returns 0x00 (0000ms, 1824ms total)
T05F4 002:367 JLINK_WriteReg(FAULTMASK, 0x00000000)  returns 0x00 (0000ms, 1824ms total)
T05F4 002:367 JLINK_WriteReg(BASEPRI_MAX, 0x00000000)  returns 0x00 (0000ms, 1824ms total)
T05F4 002:367 JLINK_SetBPEx(Addr = 0x20000000, Type = 0xFFFFFFF2) -- CPU_ReadMem(2 bytes @ 0x20000000)  returns 0x00000004 (0010ms, 1824ms total)
T05F4 002:377 JLINK_Go() -- CPU_WriteMem(2 bytes @ 0x20000000) -- CPU_WriteMem(4 bytes @ 0xE0002008) -- CPU_WriteMem(4 bytes @ 0xE000200C) -- CPU_WriteMem(4 bytes @ 0xE0002010) -- CPU_WriteMem(4 bytes @ 0xE0002014) -- CPU_WriteMem(4 bytes @ 0xE0002018) -- CPU_WriteMem(4 bytes @ 0xE000201C) (0075ms, 1834ms total)
T05F4 002:452 JLINK_IsHalted() -- CPU_ReadMem(2 bytes @ 0x20000000)  returns TRUE (0125ms, 1909ms total)
T05F4 002:577 JLINK_ReadReg(R15)  returns 0x20000000 (0000ms, 1909ms total)
T05F4 002:577 JLINK_ClrBPEx(BPHandle = 0x00000004)  returns 0x00 (0000ms, 1909ms total)
T05F4 002:577 JLINK_ReadReg(R0)  returns 0x00000000 (0000ms, 1909ms total)
T05F4 002:578 JLINK_WriteMem(0x20000164, 0x0400 Bytes, ...) -- Data:  78 DD 00 20 4D 02 00 08 77 02 00 08 79 02 00 08 ... -- CPU_WriteMem(1024 bytes @ 0x20000164)  returns 0x400 (0238ms, 1909ms total)
T05F4 002:816 JLINK_WriteReg(R0, 0x08000000)  returns 0x00 (0000ms, 2147ms total)
T05F4 002:816 JLINK_WriteReg(R1, 0x00000400)  returns 0x00 (0000ms, 2147ms total)
T05F4 002:816 JLINK_WriteReg(R2, 0x20000164)  returns 0x00 (0000ms, 2147ms total)
T05F4 002:816 JLINK_WriteReg(R3, 0x00000000)  returns 0x00 (0000ms, 2147ms total)
T05F4 002:816 JLINK_WriteReg(R4, 0x00000000)  returns 0x00 (0000ms, 2147ms total)
T05F4 002:816 JLINK_WriteReg(R5, 0x00000000)  returns 0x00 (0000ms, 2147ms total)
T05F4 002:816 JLINK_WriteReg(R6, 0x00000000)  returns 0x00 (0000ms, 2147ms total)
T05F4 002:816 JLINK_WriteReg(R7, 0x00000000)  returns 0x00 (0000ms, 2147ms total)
T05F4 002:816 JLINK_WriteReg(R8, 0x00000000)  returns 0x00 (0000ms, 2147ms total)
T05F4 002:816 JLINK_WriteReg(R9, 0x20000160)  returns 0x00 (0000ms, 2147ms total)
T05F4 002:816 JLINK_WriteReg(R10, 0x00000000)  returns 0x00 (0000ms, 2147ms total)
T05F4 002:816 JLINK_WriteReg(R11, 0x00000000)  returns 0x00 (0000ms, 2147ms total)
T05F4 002:816 JLINK_WriteReg(R12, 0x00000000)  returns 0x00 (0000ms, 2147ms total)
T05F4 002:816 JLINK_WriteReg(R13, 0x20000800)  returns 0x00 (0000ms, 2147ms total)
T05F4 002:816 JLINK_WriteReg(R14, 0x20000001)  returns 0x00 (0001ms, 2147ms total)
T05F4 002:817 JLINK_WriteReg(R15, 0x200000F4)  returns 0x00 (0000ms, 2148ms total)
T05F4 002:817 JLINK_WriteReg(XPSR, 0x01000000)  returns 0x00 (0000ms, 2148ms total)
T05F4 002:817 JLINK_WriteReg(MSP, 0x20000800)  returns 0x00 (0000ms, 2148ms total)
T05F4 002:817 JLINK_WriteReg(PSP, 0x20000800)  returns 0x00 (0000ms, 2148ms total)
T05F4 002:817 JLINK_WriteReg(BASEPRI, 0x00000000)  returns 0x00 (0000ms, 2148ms total)
T05F4 002:817 JLINK_WriteReg(CONTROL, 0x00000000)  returns 0x00 (0000ms, 2148ms total)
T05F4 002:817 JLINK_WriteReg(FAULTMASK, 0x00000000)  returns 0x00 (0000ms, 2148ms total)
T05F4 002:817 JLINK_WriteReg(BASEPRI_MAX, 0x00000000)  returns 0x00 (0000ms, 2148ms total)
T05F4 002:817 JLINK_SetBPEx(Addr = 0x20000000, Type = 0xFFFFFFF2)  returns 0x00000005 (0000ms, 2148ms total)
T05F4 002:817 JLINK_Go() -- CPU_WriteMem(4 bytes @ 0xE0002008) -- CPU_WriteMem(4 bytes @ 0xE000200C) -- CPU_WriteMem(4 bytes @ 0xE0002010) -- CPU_WriteMem(4 bytes @ 0xE0002014) -- CPU_WriteMem(4 bytes @ 0xE0002018) -- CPU_WriteMem(4 bytes @ 0xE000201C) (0071ms, 2148ms total)
T05F4 002:888 JLINK_IsHalted()  returns FALSE (0008ms, 2219ms total)
T05F4 002:947 JLINK_IsHalted() -- CPU_ReadMem(2 bytes @ 0x20000000)  returns TRUE (0124ms, 2219ms total)
T05F4 003:072 JLINK_ReadReg(R15)  returns 0x20000000 (0000ms, 2219ms total)
T05F4 003:072 JLINK_ClrBPEx(BPHandle = 0x00000005)  returns 0x00 (0000ms, 2219ms total)
T05F4 003:072 JLINK_ReadReg(R0)  returns 0x00000000 (0000ms, 2219ms total)
T05F4 003:073 JLINK_WriteMem(0x20000164, 0x0400 Bytes, ...) -- Data:  08 46 40 68 20 F4 FE 00 48 60 4F F4 1F 00 88 60 ... -- CPU_WriteMem(1024 bytes @ 0x20000164)  returns 0x400 (0237ms, 2219ms total)
T05F4 003:310 JLINK_WriteReg(R0, 0x08000400)  returns 0x00 (0000ms, 2456ms total)
T05F4 003:310 JLINK_WriteReg(R1, 0x00000400)  returns 0x00 (0000ms, 2456ms total)
T05F4 003:310 JLINK_WriteReg(R2, 0x20000164)  returns 0x00 (0000ms, 2456ms total)
T05F4 003:310 JLINK_WriteReg(R3, 0x00000000)  returns 0x00 (0000ms, 2456ms total)
T05F4 003:310 JLINK_WriteReg(R4, 0x00000000)  returns 0x00 (0000ms, 2456ms total)
T05F4 003:310 JLINK_WriteReg(R5, 0x00000000)  returns 0x00 (0000ms, 2456ms total)
T05F4 003:310 JLINK_WriteReg(R6, 0x00000000)  returns 0x00 (0000ms, 2456ms total)
T05F4 003:310 JLINK_WriteReg(R7, 0x00000000)  returns 0x00 (0000ms, 2456ms total)
T05F4 003:310 JLINK_WriteReg(R8, 0x00000000)  returns 0x00 (0000ms, 2456ms total)
T05F4 003:310 JLINK_WriteReg(R9, 0x20000160)  returns 0x00 (0000ms, 2456ms total)
T05F4 003:310 JLINK_WriteReg(R10, 0x00000000)  returns 0x00 (0000ms, 2456ms total)
T05F4 003:310 JLINK_WriteReg(R11, 0x00000000)  returns 0x00 (0000ms, 2456ms total)
T05F4 003:310 JLINK_WriteReg(R12, 0x00000000)  returns 0x00 (0000ms, 2456ms total)
T05F4 003:310 JLINK_WriteReg(R13, 0x20000800)  returns 0x00 (0000ms, 2456ms total)
T05F4 003:310 JLINK_WriteReg(R14, 0x20000001)  returns 0x00 (0000ms, 2456ms total)
T05F4 003:310 JLINK_WriteReg(R15, 0x200000F4)  returns 0x00 (0000ms, 2456ms total)
T05F4 003:310 JLINK_WriteReg(XPSR, 0x01000000)  returns 0x00 (0000ms, 2456ms total)
T05F4 003:310 JLINK_WriteReg(MSP, 0x20000800)  returns 0x00 (0001ms, 2456ms total)
T05F4 003:311 JLINK_WriteReg(PSP, 0x20000800)  returns 0x00 (0000ms, 2457ms total)
T05F4 003:311 JLINK_WriteReg(BASEPRI, 0x00000000)  returns 0x00 (0000ms, 2457ms total)
T05F4 003:311 JLINK_WriteReg(CONTROL, 0x00000000)  returns 0x00 (0000ms, 2457ms total)
T05F4 003:311 JLINK_WriteReg(FAULTMASK, 0x00000000)  returns 0x00 (0000ms, 2457ms total)
T05F4 003:311 JLINK_WriteReg(BASEPRI_MAX, 0x00000000)  returns 0x00 (0000ms, 2457ms total)
T05F4 003:311 JLINK_SetBPEx(Addr = 0x20000000, Type = 0xFFFFFFF2)  returns 0x00000006 (0000ms, 2457ms total)
T05F4 003:311 JLINK_Go() -- CPU_WriteMem(4 bytes @ 0xE0002008) -- CPU_WriteMem(4 bytes @ 0xE000200C) -- CPU_WriteMem(4 bytes @ 0xE0002010) -- CPU_WriteMem(4 bytes @ 0xE0002014) -- CPU_WriteMem(4 bytes @ 0xE0002018) -- CPU_WriteMem(4 bytes @ 0xE000201C) (0070ms, 2457ms total)
T05F4 003:381 JLINK_IsHalted()  returns FALSE (0009ms, 2527ms total)
T05F4 003:441 JLINK_IsHalted() -- CPU_ReadMem(2 bytes @ 0x20000000)  returns TRUE (0124ms, 2527ms total)
T05F4 003:565 JLINK_ReadReg(R15)  returns 0x20000000 (0000ms, 2527ms total)
T05F4 003:565 JLINK_ClrBPEx(BPHandle = 0x00000006)  returns 0x00 (0000ms, 2527ms total)
T05F4 003:565 JLINK_ReadReg(R0)  returns 0x00000000 (0000ms, 2527ms total)
T05F4 003:566 JLINK_WriteMem(0x20000164, 0x0400 Bytes, ...) -- Data:  F7 73 02 EA 03 02 82 82 70 47 82 8A 4F F6 FB 73 ... -- CPU_WriteMem(1024 bytes @ 0x20000164)  returns 0x400 (0238ms, 2527ms total)
T05F4 003:804 JLINK_WriteReg(R0, 0x08000800)  returns 0x00 (0000ms, 2765ms total)
T05F4 003:804 JLINK_WriteReg(R1, 0x00000400)  returns 0x00 (0000ms, 2765ms total)
T05F4 003:804 JLINK_WriteReg(R2, 0x20000164)  returns 0x00 (0000ms, 2765ms total)
T05F4 003:804 JLINK_WriteReg(R3, 0x00000000)  returns 0x00 (0000ms, 2765ms total)
T05F4 003:804 JLINK_WriteReg(R4, 0x00000000)  returns 0x00 (0000ms, 2765ms total)
T05F4 003:804 JLINK_WriteReg(R5, 0x00000000)  returns 0x00 (0000ms, 2765ms total)
T05F4 003:804 JLINK_WriteReg(R6, 0x00000000)  returns 0x00 (0000ms, 2765ms total)
T05F4 003:804 JLINK_WriteReg(R7, 0x00000000)  returns 0x00 (0000ms, 2765ms total)
T05F4 003:804 JLINK_WriteReg(R8, 0x00000000)  returns 0x00 (0000ms, 2765ms total)
T05F4 003:804 JLINK_WriteReg(R9, 0x20000160)  returns 0x00 (0000ms, 2765ms total)
T05F4 003:804 JLINK_WriteReg(R10, 0x00000000)  returns 0x00 (0000ms, 2765ms total)
T05F4 003:804 JLINK_WriteReg(R11, 0x00000000)  returns 0x00 (0000ms, 2765ms total)
T05F4 003:804 JLINK_WriteReg(R12, 0x00000000)  returns 0x00 (0000ms, 2765ms total)
T05F4 003:804 JLINK_WriteReg(R13, 0x20000800)  returns 0x00 (0000ms, 2765ms total)
T05F4 003:804 JLINK_WriteReg(R14, 0x20000001)  returns 0x00 (0000ms, 2765ms total)
T05F4 003:804 JLINK_WriteReg(R15, 0x200000F4)  returns 0x00 (0000ms, 2765ms total)
T05F4 003:804 JLINK_WriteReg(XPSR, 0x01000000)  returns 0x00 (0000ms, 2765ms total)
T05F4 003:804 JLINK_WriteReg(MSP, 0x20000800)  returns 0x00 (0000ms, 2765ms total)
T05F4 003:804 JLINK_WriteReg(PSP, 0x20000800)  returns 0x00 (0000ms, 2765ms total)
T05F4 003:804 JLINK_WriteReg(BASEPRI, 0x00000000)  returns 0x00 (0000ms, 2765ms total)
T05F4 003:804 JLINK_WriteReg(CONTROL, 0x00000000)  returns 0x00 (0000ms, 2765ms total)
T05F4 003:804 JLINK_WriteReg(FAULTMASK, 0x00000000)  returns 0x00 (0000ms, 2765ms total)
T05F4 003:804 JLINK_WriteReg(BASEPRI_MAX, 0x00000000)  returns 0x00 (0001ms, 2765ms total)
T05F4 003:805 JLINK_SetBPEx(Addr = 0x20000000, Type = 0xFFFFFFF2)  returns 0x00000007 (0000ms, 2766ms total)
T05F4 003:805 JLINK_Go() -- CPU_WriteMem(4 bytes @ 0xE0002008) -- CPU_WriteMem(4 bytes @ 0xE000200C) -- CPU_WriteMem(4 bytes @ 0xE0002010) -- CPU_WriteMem(4 bytes @ 0xE0002014) -- CPU_WriteMem(4 bytes @ 0xE0002018) -- CPU_WriteMem(4 bytes @ 0xE000201C) (0070ms, 2766ms total)
T05F4 003:875 JLINK_IsHalted()  returns FALSE (0009ms, 2836ms total)
T05F4 003:934 JLINK_IsHalted() -- CPU_ReadMem(2 bytes @ 0x20000000)  returns TRUE (0125ms, 2836ms total)
T05F4 004:059 JLINK_ReadReg(R15)  returns 0x20000000 (0000ms, 2836ms total)
T05F4 004:059 JLINK_ClrBPEx(BPHandle = 0x00000007)  returns 0x00 (0000ms, 2836ms total)
T05F4 004:059 JLINK_ReadReg(R0)  returns 0x00000000 (0000ms, 2836ms total)
T05F4 004:059 JLINK_WriteMem(0x20000164, 0x0400 Bytes, ...) -- Data:  01 E0 A0 F1 01 00 00 28 FB D1 70 47 70 B5 04 46 ... -- CPU_WriteMem(1024 bytes @ 0x20000164)  returns 0x400 (0239ms, 2836ms total)
T05F4 004:298 JLINK_WriteReg(R0, 0x08000C00)  returns 0x00 (0001ms, 3075ms total)
T05F4 004:299 JLINK_WriteReg(R1, 0x00000400)  returns 0x00 (0000ms, 3076ms total)
T05F4 004:299 JLINK_WriteReg(R2, 0x20000164)  returns 0x00 (0000ms, 3076ms total)
T05F4 004:299 JLINK_WriteReg(R3, 0x00000000)  returns 0x00 (0000ms, 3076ms total)
T05F4 004:299 JLINK_WriteReg(R4, 0x00000000)  returns 0x00 (0000ms, 3076ms total)
T05F4 004:299 JLINK_WriteReg(R5, 0x00000000)  returns 0x00 (0000ms, 3076ms total)
T05F4 004:299 JLINK_WriteReg(R6, 0x00000000)  returns 0x00 (0000ms, 3076ms total)
T05F4 004:299 JLINK_WriteReg(R7, 0x00000000)  returns 0x00 (0000ms, 3076ms total)
T05F4 004:299 JLINK_WriteReg(R8, 0x00000000)  returns 0x00 (0000ms, 3076ms total)
T05F4 004:299 JLINK_WriteReg(R9, 0x20000160)  returns 0x00 (0000ms, 3076ms total)
T05F4 004:299 JLINK_WriteReg(R10, 0x00000000)  returns 0x00 (0000ms, 3076ms total)
T05F4 004:299 JLINK_WriteReg(R11, 0x00000000)  returns 0x00 (0000ms, 3076ms total)
T05F4 004:299 JLINK_WriteReg(R12, 0x00000000)  returns 0x00 (0000ms, 3076ms total)
T05F4 004:299 JLINK_WriteReg(R13, 0x20000800)  returns 0x00 (0000ms, 3076ms total)
T05F4 004:299 JLINK_WriteReg(R14, 0x20000001)  returns 0x00 (0000ms, 3076ms total)
T05F4 004:299 JLINK_WriteReg(R15, 0x200000F4)  returns 0x00 (0000ms, 3076ms total)
T05F4 004:299 JLINK_WriteReg(XPSR, 0x01000000)  returns 0x00 (0000ms, 3076ms total)
T05F4 004:299 JLINK_WriteReg(MSP, 0x20000800)  returns 0x00 (0000ms, 3076ms total)
T05F4 004:299 JLINK_WriteReg(PSP, 0x20000800)  returns 0x00 (0000ms, 3076ms total)
T05F4 004:299 JLINK_WriteReg(BASEPRI, 0x00000000)  returns 0x00 (0000ms, 3076ms total)
T05F4 004:299 JLINK_WriteReg(CONTROL, 0x00000000)  returns 0x00 (0000ms, 3076ms total)
T05F4 004:299 JLINK_WriteReg(FAULTMASK, 0x00000000)  returns 0x00 (0000ms, 3076ms total)
T05F4 004:299 JLINK_WriteReg(BASEPRI_MAX, 0x00000000)  returns 0x00 (0000ms, 3076ms total)
T05F4 004:299 JLINK_SetBPEx(Addr = 0x20000000, Type = 0xFFFFFFF2)  returns 0x00000008 (0000ms, 3076ms total)
T05F4 004:299 JLINK_Go() -- CPU_WriteMem(4 bytes @ 0xE0002008) -- CPU_WriteMem(4 bytes @ 0xE000200C) -- CPU_WriteMem(4 bytes @ 0xE0002010) -- CPU_WriteMem(4 bytes @ 0xE0002014) -- CPU_WriteMem(4 bytes @ 0xE0002018) -- CPU_WriteMem(4 bytes @ 0xE000201C) (0071ms, 3076ms total)
T05F4 004:370 JLINK_IsHalted()  returns FALSE (0008ms, 3147ms total)
T05F4 004:428 JLINK_IsHalted() -- CPU_ReadMem(2 bytes @ 0x20000000)  returns TRUE (0126ms, 3147ms total)
T05F4 004:554 JLINK_ReadReg(R15)  returns 0x20000000 (0000ms, 3147ms total)
T05F4 004:554 JLINK_ClrBPEx(BPHandle = 0x00000008)  returns 0x00 (0000ms, 3147ms total)
T05F4 004:554 JLINK_ReadReg(R0)  returns 0x00000000 (0000ms, 3147ms total)
T05F4 004:554 JLINK_WriteMem(0x20000164, 0x0400 Bytes, ...) -- Data:  41 F6 DF 71 00 EA 01 00 42 49 08 61 20 46 70 BD ... -- CPU_WriteMem(1024 bytes @ 0x20000164)  returns 0x400 (0239ms, 3147ms total)
T05F4 004:793 JLINK_WriteReg(R0, 0x08001000)  returns 0x00 (0000ms, 3386ms total)
T05F4 004:793 JLINK_WriteReg(R1, 0x00000400)  returns 0x00 (0000ms, 3386ms total)
T05F4 004:793 JLINK_WriteReg(R2, 0x20000164)  returns 0x00 (0000ms, 3386ms total)
T05F4 004:794 JLINK_WriteReg(R3, 0x00000000)  returns 0x00 (0000ms, 3386ms total)
T05F4 004:794 JLINK_WriteReg(R4, 0x00000000)  returns 0x00 (0000ms, 3386ms total)
T05F4 004:794 JLINK_WriteReg(R5, 0x00000000)  returns 0x00 (0000ms, 3386ms total)
T05F4 004:794 JLINK_WriteReg(R6, 0x00000000)  returns 0x00 (0000ms, 3386ms total)
T05F4 004:794 JLINK_WriteReg(R7, 0x00000000)  returns 0x00 (0000ms, 3386ms total)
T05F4 004:794 JLINK_WriteReg(R8, 0x00000000)  returns 0x00 (0000ms, 3386ms total)
T05F4 004:794 JLINK_WriteReg(R9, 0x20000160)  returns 0x00 (0000ms, 3386ms total)
T05F4 004:794 JLINK_WriteReg(R10, 0x00000000)  returns 0x00 (0000ms, 3386ms total)
T05F4 004:794 JLINK_WriteReg(R11, 0x00000000)  returns 0x00 (0000ms, 3386ms total)
T05F4 004:794 JLINK_WriteReg(R12, 0x00000000)  returns 0x00 (0000ms, 3386ms total)
T05F4 004:794 JLINK_WriteReg(R13, 0x20000800)  returns 0x00 (0000ms, 3386ms total)
T05F4 004:794 JLINK_WriteReg(R14, 0x20000001)  returns 0x00 (0000ms, 3386ms total)
T05F4 004:794 JLINK_WriteReg(R15, 0x200000F4)  returns 0x00 (0000ms, 3386ms total)
T05F4 004:794 JLINK_WriteReg(XPSR, 0x01000000)  returns 0x00 (0000ms, 3386ms total)
T05F4 004:794 JLINK_WriteReg(MSP, 0x20000800)  returns 0x00 (0000ms, 3386ms total)
T05F4 004:794 JLINK_WriteReg(PSP, 0x20000800)  returns 0x00 (0000ms, 3386ms total)
T05F4 004:794 JLINK_WriteReg(BASEPRI, 0x00000000)  returns 0x00 (0000ms, 3386ms total)
T05F4 004:794 JLINK_WriteReg(CONTROL, 0x00000000)  returns 0x00 (0000ms, 3386ms total)
T05F4 004:794 JLINK_WriteReg(FAULTMASK, 0x00000000)  returns 0x00 (0000ms, 3386ms total)
T05F4 004:794 JLINK_WriteReg(BASEPRI_MAX, 0x00000000)  returns 0x00 (0000ms, 3386ms total)
T05F4 004:794 JLINK_SetBPEx(Addr = 0x20000000, Type = 0xFFFFFFF2)  returns 0x00000009 (0000ms, 3386ms total)
T05F4 004:794 JLINK_Go() -- CPU_WriteMem(4 bytes @ 0xE0002008) -- CPU_WriteMem(4 bytes @ 0xE000200C) -- CPU_WriteMem(4 bytes @ 0xE0002010) -- CPU_WriteMem(4 bytes @ 0xE0002014) -- CPU_WriteMem(4 bytes @ 0xE0002018) -- CPU_WriteMem(4 bytes @ 0xE000201C) (0071ms, 3386ms total)
T05F4 004:865 JLINK_IsHalted()  returns FALSE (0008ms, 3457ms total)
T05F4 004:924 JLINK_IsHalted() -- CPU_ReadMem(2 bytes @ 0x20000000)  returns TRUE (0125ms, 3457ms total)
T05F4 005:049 JLINK_ReadReg(R15)  returns 0x20000000 (0000ms, 3457ms total)
T05F4 005:049 JLINK_ClrBPEx(BPHandle = 0x00000009)  returns 0x00 (0000ms, 3457ms total)
T05F4 005:049 JLINK_ReadReg(R0)  returns 0x00000000 (0000ms, 3457ms total)
T05F4 005:049 JLINK_WriteMem(0x20000164, 0x0400 Bytes, ...) -- Data:  4F EA 06 16 03 FA 06 F6 21 EA 06 01 41 F0 70 61 ... -- CPU_WriteMem(1024 bytes @ 0x20000164)  returns 0x400 (0238ms, 3457ms total)
T05F4 005:288 JLINK_WriteReg(R0, 0x08001400)  returns 0x00 (0000ms, 3695ms total)
T05F4 005:288 JLINK_WriteReg(R1, 0x00000400)  returns 0x00 (0000ms, 3695ms total)
T05F4 005:288 JLINK_WriteReg(R2, 0x20000164)  returns 0x00 (0000ms, 3695ms total)
T05F4 005:288 JLINK_WriteReg(R3, 0x00000000)  returns 0x00 (0000ms, 3695ms total)
T05F4 005:288 JLINK_WriteReg(R4, 0x00000000)  returns 0x00 (0000ms, 3695ms total)
T05F4 005:288 JLINK_WriteReg(R5, 0x00000000)  returns 0x00 (0000ms, 3695ms total)
T05F4 005:288 JLINK_WriteReg(R6, 0x00000000)  returns 0x00 (0000ms, 3695ms total)
T05F4 005:288 JLINK_WriteReg(R7, 0x00000000)  returns 0x00 (0000ms, 3695ms total)
T05F4 005:288 JLINK_WriteReg(R8, 0x00000000)  returns 0x00 (0001ms, 3695ms total)
T05F4 005:289 JLINK_WriteReg(R9, 0x20000160)  returns 0x00 (0000ms, 3696ms total)
T05F4 005:289 JLINK_WriteReg(R10, 0x00000000)  returns 0x00 (0000ms, 3696ms total)
T05F4 005:289 JLINK_WriteReg(R11, 0x00000000)  returns 0x00 (0000ms, 3696ms total)
T05F4 005:289 JLINK_WriteReg(R12, 0x00000000)  returns 0x00 (0000ms, 3696ms total)
T05F4 005:289 JLINK_WriteReg(R13, 0x20000800)  returns 0x00 (0000ms, 3696ms total)
T05F4 005:289 JLINK_WriteReg(R14, 0x20000001)  returns 0x00 (0000ms, 3696ms total)
T05F4 005:289 JLINK_WriteReg(R15, 0x200000F4)  returns 0x00 (0000ms, 3696ms total)
T05F4 005:289 JLINK_WriteReg(XPSR, 0x01000000)  returns 0x00 (0000ms, 3696ms total)
T05F4 005:289 JLINK_WriteReg(MSP, 0x20000800)  returns 0x00 (0000ms, 3696ms total)
T05F4 005:289 JLINK_WriteReg(PSP, 0x20000800)  returns 0x00 (0000ms, 3696ms total)
T05F4 005:289 JLINK_WriteReg(BASEPRI, 0x00000000)  returns 0x00 (0000ms, 3696ms total)
T05F4 005:289 JLINK_WriteReg(CONTROL, 0x00000000)  returns 0x00 (0000ms, 3696ms total)
T05F4 005:289 JLINK_WriteReg(FAULTMASK, 0x00000000)  returns 0x00 (0000ms, 3696ms total)
T05F4 005:289 JLINK_WriteReg(BASEPRI_MAX, 0x00000000)  returns 0x00 (0000ms, 3696ms total)
T05F4 005:289 JLINK_SetBPEx(Addr = 0x20000000, Type = 0xFFFFFFF2)  returns 0x0000000A (0000ms, 3696ms total)
T05F4 005:289 JLINK_Go() -- CPU_WriteMem(4 bytes @ 0xE0002008) -- CPU_WriteMem(4 bytes @ 0xE000200C) -- CPU_WriteMem(4 bytes @ 0xE0002010) -- CPU_WriteMem(4 bytes @ 0xE0002014) -- CPU_WriteMem(4 bytes @ 0xE0002018) -- CPU_WriteMem(4 bytes @ 0xE000201C) (0070ms, 3696ms total)
T05F4 005:359 JLINK_IsHalted()  returns FALSE (0008ms, 3766ms total)
T05F4 005:418 JLINK_IsHalted() -- CPU_ReadMem(2 bytes @ 0x20000000)  returns TRUE (0125ms, 3766ms total)
T05F4 005:544 JLINK_ReadReg(R15)  returns 0x20000000 (0000ms, 3766ms total)
T05F4 005:544 JLINK_ClrBPEx(BPHandle = 0x0000000A)  returns 0x00 (0000ms, 3766ms total)
T05F4 005:544 JLINK_ReadReg(R0)  returns 0x00000000 (0000ms, 3766ms total)
T05F4 005:545 JLINK_WriteMem(0x20000164, 0x0400 Bytes, ...) -- Data:  23 4B DA 61 05 E0 22 4A D2 69 22 EA 00 02 20 4B ... -- CPU_WriteMem(1024 bytes @ 0x20000164)  returns 0x400 (0237ms, 3767ms total)
T05F4 005:782 JLINK_WriteReg(R0, 0x08001800)  returns 0x00 (0000ms, 4004ms total)
T05F4 005:782 JLINK_WriteReg(R1, 0x00000400)  returns 0x00 (0000ms, 4004ms total)
T05F4 005:782 JLINK_WriteReg(R2, 0x20000164)  returns 0x00 (0000ms, 4004ms total)
T05F4 005:782 JLINK_WriteReg(R3, 0x00000000)  returns 0x00 (0000ms, 4004ms total)
T05F4 005:782 JLINK_WriteReg(R4, 0x00000000)  returns 0x00 (0000ms, 4004ms total)
T05F4 005:782 JLINK_WriteReg(R5, 0x00000000)  returns 0x00 (0000ms, 4004ms total)
T05F4 005:782 JLINK_WriteReg(R6, 0x00000000)  returns 0x00 (0000ms, 4004ms total)
T05F4 005:782 JLINK_WriteReg(R7, 0x00000000)  returns 0x00 (0000ms, 4004ms total)
T05F4 005:782 JLINK_WriteReg(R8, 0x00000000)  returns 0x00 (0000ms, 4004ms total)
T05F4 005:782 JLINK_WriteReg(R9, 0x20000160)  returns 0x00 (0000ms, 4004ms total)
T05F4 005:782 JLINK_WriteReg(R10, 0x00000000)  returns 0x00 (0000ms, 4004ms total)
T05F4 005:783 JLINK_WriteReg(R11, 0x00000000)  returns 0x00 (0000ms, 4004ms total)
T05F4 005:783 JLINK_WriteReg(R12, 0x00000000)  returns 0x00 (0000ms, 4004ms total)
T05F4 005:783 JLINK_WriteReg(R13, 0x20000800)  returns 0x00 (0000ms, 4004ms total)
T05F4 005:783 JLINK_WriteReg(R14, 0x20000001)  returns 0x00 (0000ms, 4004ms total)
T05F4 005:783 JLINK_WriteReg(R15, 0x200000F4)  returns 0x00 (0000ms, 4004ms total)
T05F4 005:783 JLINK_WriteReg(XPSR, 0x01000000)  returns 0x00 (0000ms, 4004ms total)
T05F4 005:783 JLINK_WriteReg(MSP, 0x20000800)  returns 0x00 (0000ms, 4004ms total)
T05F4 005:783 JLINK_WriteReg(PSP, 0x20000800)  returns 0x00 (0000ms, 4004ms total)
T05F4 005:783 JLINK_WriteReg(BASEPRI, 0x00000000)  returns 0x00 (0000ms, 4004ms total)
T05F4 005:783 JLINK_WriteReg(CONTROL, 0x00000000)  returns 0x00 (0000ms, 4004ms total)
T05F4 005:783 JLINK_WriteReg(FAULTMASK, 0x00000000)  returns 0x00 (0000ms, 4004ms total)
T05F4 005:783 JLINK_WriteReg(BASEPRI_MAX, 0x00000000)  returns 0x00 (0000ms, 4004ms total)
T05F4 005:783 JLINK_SetBPEx(Addr = 0x20000000, Type = 0xFFFFFFF2)  returns 0x0000000B (0000ms, 4004ms total)
T05F4 005:783 JLINK_Go() -- CPU_WriteMem(4 bytes @ 0xE0002008) -- CPU_WriteMem(4 bytes @ 0xE000200C) -- CPU_WriteMem(4 bytes @ 0xE0002010) -- CPU_WriteMem(4 bytes @ 0xE0002014) -- CPU_WriteMem(4 bytes @ 0xE0002018) -- CPU_WriteMem(4 bytes @ 0xE000201C) (0070ms, 4004ms total)
T05F4 005:853 JLINK_IsHalted()  returns FALSE (0008ms, 4074ms total)
T05F4 005:912 JLINK_IsHalted() -- CPU_ReadMem(2 bytes @ 0x20000000)  returns TRUE (0124ms, 4074ms total)
T05F4 006:036 JLINK_ReadReg(R15)  returns 0x20000000 (0000ms, 4074ms total)
T05F4 006:036 JLINK_ClrBPEx(BPHandle = 0x0000000B)  returns 0x00 (0000ms, 4074ms total)
T05F4 006:036 JLINK_ReadReg(R0)  returns 0x00000000 (0000ms, 4074ms total)
T05F4 006:036 JLINK_WriteMem(0x20000164, 0x0400 Bytes, ...) -- Data:  07 F6 B4 B2 4F EA 21 13 4F F0 01 06 06 FA 03 F6 ... -- CPU_WriteMem(1024 bytes @ 0x20000164)  returns 0x400 (0238ms, 4074ms total)
T05F4 006:275 JLINK_WriteReg(R0, 0x08001C00)  returns 0x00 (0000ms, 4312ms total)
T05F4 006:275 JLINK_WriteReg(R1, 0x00000400)  returns 0x00 (0000ms, 4312ms total)
T05F4 006:275 JLINK_WriteReg(R2, 0x20000164)  returns 0x00 (0000ms, 4312ms total)
T05F4 006:275 JLINK_WriteReg(R3, 0x00000000)  returns 0x00 (0000ms, 4312ms total)
T05F4 006:275 JLINK_WriteReg(R4, 0x00000000)  returns 0x00 (0000ms, 4312ms total)
T05F4 006:275 JLINK_WriteReg(R5, 0x00000000)  returns 0x00 (0000ms, 4312ms total)
T05F4 006:275 JLINK_WriteReg(R6, 0x00000000)  returns 0x00 (0000ms, 4312ms total)
T05F4 006:275 JLINK_WriteReg(R7, 0x00000000)  returns 0x00 (0000ms, 4312ms total)
T05F4 006:275 JLINK_WriteReg(R8, 0x00000000)  returns 0x00 (0000ms, 4312ms total)
T05F4 006:275 JLINK_WriteReg(R9, 0x20000160)  returns 0x00 (0000ms, 4312ms total)
T05F4 006:275 JLINK_WriteReg(R10, 0x00000000)  returns 0x00 (0000ms, 4312ms total)
T05F4 006:275 JLINK_WriteReg(R11, 0x00000000)  returns 0x00 (0000ms, 4312ms total)
T05F4 006:275 JLINK_WriteReg(R12, 0x00000000)  returns 0x00 (0000ms, 4312ms total)
T05F4 006:275 JLINK_WriteReg(R13, 0x20000800)  returns 0x00 (0000ms, 4312ms total)
T05F4 006:275 JLINK_WriteReg(R14, 0x20000001)  returns 0x00 (0000ms, 4312ms total)
T05F4 006:275 JLINK_WriteReg(R15, 0x200000F4)  returns 0x00 (0000ms, 4312ms total)
T05F4 006:275 JLINK_WriteReg(XPSR, 0x01000000)  returns 0x00 (0000ms, 4312ms total)
T05F4 006:275 JLINK_WriteReg(MSP, 0x20000800)  returns 0x00 (0001ms, 4312ms total)
T05F4 006:276 JLINK_WriteReg(PSP, 0x20000800)  returns 0x00 (0000ms, 4313ms total)
T05F4 006:276 JLINK_WriteReg(BASEPRI, 0x00000000)  returns 0x00 (0000ms, 4313ms total)
T05F4 006:276 JLINK_WriteReg(CONTROL, 0x00000000)  returns 0x00 (0000ms, 4313ms total)
T05F4 006:276 JLINK_WriteReg(FAULTMASK, 0x00000000)  returns 0x00 (0000ms, 4313ms total)
T05F4 006:276 JLINK_WriteReg(BASEPRI_MAX, 0x00000000)  returns 0x00 (0000ms, 4313ms total)
T05F4 006:276 JLINK_SetBPEx(Addr = 0x20000000, Type = 0xFFFFFFF2)  returns 0x0000000C (0000ms, 4313ms total)
T05F4 006:276 JLINK_Go() -- CPU_WriteMem(4 bytes @ 0xE0002008) -- CPU_WriteMem(4 bytes @ 0xE000200C) -- CPU_WriteMem(4 bytes @ 0xE0002010) -- CPU_WriteMem(4 bytes @ 0xE0002014) -- CPU_WriteMem(4 bytes @ 0xE0002018) -- CPU_WriteMem(4 bytes @ 0xE000201C) (0070ms, 4313ms total)
T05F4 006:346 JLINK_IsHalted()  returns FALSE (0008ms, 4383ms total)
T05F4 006:405 JLINK_IsHalted() -- CPU_ReadMem(2 bytes @ 0x20000000)  returns TRUE (0124ms, 4383ms total)
T05F4 006:529 JLINK_ReadReg(R15)  returns 0x20000000 (0000ms, 4383ms total)
T05F4 006:529 JLINK_ClrBPEx(BPHandle = 0x0000000C)  returns 0x00 (0000ms, 4383ms total)
T05F4 006:529 JLINK_ReadReg(R0)  returns 0x00000000 (0000ms, 4383ms total)
T05F4 006:529 JLINK_WriteMem(0x20000164, 0x0400 Bytes, ...) -- Data:  10 E0 0D 42 03 D0 E0 89 62 68 10 61 02 E0 E0 89 ... -- CPU_WriteMem(1024 bytes @ 0x20000164)  returns 0x400 (0238ms, 4383ms total)
T05F4 006:767 JLINK_WriteReg(R0, 0x08002000)  returns 0x00 (0001ms, 4621ms total)
T05F4 006:768 JLINK_WriteReg(R1, 0x00000400)  returns 0x00 (0000ms, 4622ms total)
T05F4 006:768 JLINK_WriteReg(R2, 0x20000164)  returns 0x00 (0000ms, 4622ms total)
T05F4 006:768 JLINK_WriteReg(R3, 0x00000000)  returns 0x00 (0000ms, 4622ms total)
T05F4 006:768 JLINK_WriteReg(R4, 0x00000000)  returns 0x00 (0000ms, 4622ms total)
T05F4 006:768 JLINK_WriteReg(R5, 0x00000000)  returns 0x00 (0000ms, 4622ms total)
T05F4 006:768 JLINK_WriteReg(R6, 0x00000000)  returns 0x00 (0000ms, 4622ms total)
T05F4 006:768 JLINK_WriteReg(R7, 0x00000000)  returns 0x00 (0000ms, 4622ms total)
T05F4 006:768 JLINK_WriteReg(R8, 0x00000000)  returns 0x00 (0000ms, 4622ms total)
T05F4 006:768 JLINK_WriteReg(R9, 0x20000160)  returns 0x00 (0000ms, 4622ms total)
T05F4 006:768 JLINK_WriteReg(R10, 0x00000000)  returns 0x00 (0000ms, 4622ms total)
T05F4 006:768 JLINK_WriteReg(R11, 0x00000000)  returns 0x00 (0000ms, 4622ms total)
T05F4 006:768 JLINK_WriteReg(R12, 0x00000000)  returns 0x00 (0000ms, 4622ms total)
T05F4 006:768 JLINK_WriteReg(R13, 0x20000800)  returns 0x00 (0000ms, 4622ms total)
T05F4 006:768 JLINK_WriteReg(R14, 0x20000001)  returns 0x00 (0000ms, 4622ms total)
T05F4 006:768 JLINK_WriteReg(R15, 0x200000F4)  returns 0x00 (0000ms, 4622ms total)
T05F4 006:768 JLINK_WriteReg(XPSR, 0x01000000)  returns 0x00 (0000ms, 4622ms total)
T05F4 006:768 JLINK_WriteReg(MSP, 0x20000800)  returns 0x00 (0000ms, 4622ms total)
T05F4 006:768 JLINK_WriteReg(PSP, 0x20000800)  returns 0x00 (0000ms, 4622ms total)
T05F4 006:768 JLINK_WriteReg(BASEPRI, 0x00000000)  returns 0x00 (0000ms, 4622ms total)
T05F4 006:768 JLINK_WriteReg(CONTROL, 0x00000000)  returns 0x00 (0000ms, 4622ms total)
T05F4 006:768 JLINK_WriteReg(FAULTMASK, 0x00000000)  returns 0x00 (0000ms, 4622ms total)
T05F4 006:768 JLINK_WriteReg(BASEPRI_MAX, 0x00000000)  returns 0x00 (0001ms, 4622ms total)
T05F4 006:769 JLINK_SetBPEx(Addr = 0x20000000, Type = 0xFFFFFFF2)  returns 0x0000000D (0000ms, 4623ms total)
T05F4 006:769 JLINK_Go() -- CPU_WriteMem(4 bytes @ 0xE0002008) -- CPU_WriteMem(4 bytes @ 0xE000200C) -- CPU_WriteMem(4 bytes @ 0xE0002010) -- CPU_WriteMem(4 bytes @ 0xE0002014) -- CPU_WriteMem(4 bytes @ 0xE0002018) -- CPU_WriteMem(4 bytes @ 0xE000201C) (0071ms, 4623ms total)
T05F4 006:840 JLINK_IsHalted()  returns FALSE (0008ms, 4694ms total)
T05F4 006:899 JLINK_IsHalted() -- CPU_ReadMem(2 bytes @ 0x20000000)  returns TRUE (0125ms, 4694ms total)
T05F4 007:024 JLINK_ReadReg(R15)  returns 0x20000000 (0000ms, 4694ms total)
T05F4 007:024 JLINK_ClrBPEx(BPHandle = 0x0000000D)  returns 0x00 (0000ms, 4694ms total)
T05F4 007:024 JLINK_ReadReg(R0)  returns 0x00000000 (0000ms, 4694ms total)
T05F4 007:024 JLINK_WriteMem(0x20000164, 0x0400 Bytes, ...) -- Data:  07 F1 04 07 5F EA 0A 00 AA F1 01 0A EA D1 48 E0 ... -- CPU_WriteMem(1024 bytes @ 0x20000164)  returns 0x400 (0238ms, 4694ms total)
T05F4 007:263 JLINK_WriteReg(R0, 0x08002400)  returns 0x00 (0000ms, 4932ms total)
T05F4 007:263 JLINK_WriteReg(R1, 0x00000400)  returns 0x00 (0000ms, 4932ms total)
T05F4 007:263 JLINK_WriteReg(R2, 0x20000164)  returns 0x00 (0000ms, 4932ms total)
T05F4 007:263 JLINK_WriteReg(R3, 0x00000000)  returns 0x00 (0000ms, 4932ms total)
T05F4 007:263 JLINK_WriteReg(R4, 0x00000000)  returns 0x00 (0000ms, 4932ms total)
T05F4 007:263 JLINK_WriteReg(R5, 0x00000000)  returns 0x00 (0000ms, 4932ms total)
T05F4 007:263 JLINK_WriteReg(R6, 0x00000000)  returns 0x00 (0000ms, 4932ms total)
T05F4 007:263 JLINK_WriteReg(R7, 0x00000000)  returns 0x00 (0000ms, 4932ms total)
T05F4 007:263 JLINK_WriteReg(R8, 0x00000000)  returns 0x00 (0000ms, 4932ms total)
T05F4 007:263 JLINK_WriteReg(R9, 0x20000160)  returns 0x00 (0000ms, 4932ms total)
T05F4 007:263 JLINK_WriteReg(R10, 0x00000000)  returns 0x00 (0000ms, 4932ms total)
T05F4 007:263 JLINK_WriteReg(R11, 0x00000000)  returns 0x00 (0000ms, 4932ms total)
T05F4 007:263 JLINK_WriteReg(R12, 0x00000000)  returns 0x00 (0000ms, 4932ms total)
T05F4 007:263 JLINK_WriteReg(R13, 0x20000800)  returns 0x00 (0000ms, 4932ms total)
T05F4 007:263 JLINK_WriteReg(R14, 0x20000001)  returns 0x00 (0000ms, 4932ms total)
T05F4 007:263 JLINK_WriteReg(R15, 0x200000F4)  returns 0x00 (0000ms, 4932ms total)
T05F4 007:263 JLINK_WriteReg(XPSR, 0x01000000)  returns 0x00 (0000ms, 4932ms total)
T05F4 007:263 JLINK_WriteReg(MSP, 0x20000800)  returns 0x00 (0000ms, 4932ms total)
T05F4 007:263 JLINK_WriteReg(PSP, 0x20000800)  returns 0x00 (0000ms, 4932ms total)
T05F4 007:263 JLINK_WriteReg(BASEPRI, 0x00000000)  returns 0x00 (0000ms, 4932ms total)
T05F4 007:263 JLINK_WriteReg(CONTROL, 0x00000000)  returns 0x00 (0000ms, 4932ms total)
T05F4 007:263 JLINK_WriteReg(FAULTMASK, 0x00000000)  returns 0x00 (0000ms, 4932ms total)
T05F4 007:263 JLINK_WriteReg(BASEPRI_MAX, 0x00000000)  returns 0x00 (0000ms, 4932ms total)
T05F4 007:263 JLINK_SetBPEx(Addr = 0x20000000, Type = 0xFFFFFFF2)  returns 0x0000000E (0000ms, 4932ms total)
